Circuit: * H:\Mi unidad\#Facultad\4to\Sintesis de redes activas\2023\Laboratorio\Lab 2\Circ 1 Ri=50\Lab_2_Circ_1_Ri=50+Vo=f(V1).asc

Direct Newton iteration for .op point succeeded.
Semiconductor Device Operating Points:
                        --- Diodes ---
Name:    d:u1:p      d:u1:ln     d:u1:lp     d:u1:e      d:u1:c
Model:    u1:dx       u1:dx       u1:dx       u1:dx       u1:dx
Id:     -2.00e-11   -4.05e-11   -3.96e-11   -1.79e-11    8.14e-06
Vd:     -2.00e+01   -4.05e+01   -3.95e+01   -1.79e+01    5.96e-01
Req:     1.00e+12    1.00e+12    1.00e+12    1.00e+12    3.18e+03
CAP:     0.00e+00    0.00e+00    0.00e+00    0.00e+00    0.00e+00

                        --- Bipolar Transistors ---
Name:     q:u1:2      q:u1:1
Model:     u1:qx       u1:qx
Ib:       1.41e-11   -4.08e-08
Ic:      -1.00e-11   -1.02e-05
Vbe:      4.14e+00   -6.02e-01
Vbc:      1.00e+01    5.15e+00
Vce:     -5.86e+00   -5.75e+00
BetaDC:  -7.07e-01    2.50e+02
Gm:       1.04e-83    3.95e-04
Rpi:      1.00e+12    6.34e+05
Rx:       0.00e+00    0.00e+00
Ro:       0.00e+00    0.00e+00
Cbe:      0.00e+00    0.00e+00
Cbc:      0.00e+00    0.00e+00
Cjs:      0.00e+00    0.00e+00
BetaAC:   1.04e-71    2.50e+02
Cbx:      0.00e+00    0.00e+00
Ft:       0.00e+00    0.00e+00



Date: Sat Jan 04 15:51:50 2025
Total elapsed time: 13.601 seconds.

tnom = 27
temp = 27
method = trap
totiter = 16
traniter = 0
tranpoints = 0
accept = 0
rejected = 0
matrix size = 35
fillins = 37
solver = Normal
Matrix Compiler1: 3.24 KB object code size
Matrix Compiler2: 3.40 KB object code size
