Circuit: * H:\Mi unidad\#Facultad\4to\Sintesis de redes activas\2023\Laboratorio\Lab 1\Circ 4\Lab_1_Circ_4.asc

Direct Newton iteration for .op point succeeded.
Semiconductor Device Operating Points:
                        --- Diodes ---
Name:    d:u1:p      d:u1:ln     d:u1:lp     d:u1:e      d:u1:c
Model:    u1:dx       u1:dx       u1:dx       u1:dx       u1:dx
Id:     -1.00e-11   -4.06e-11   -3.95e-11   -7.90e-12    8.15e-06
Vd:     -1.00e+01   -4.05e+01   -3.95e+01   -7.90e+00    5.96e-01
Req:     1.00e+12    1.00e+12    1.00e+12    1.00e+12    3.17e+03
CAP:     0.00e+00    0.00e+00    0.00e+00    0.00e+00    0.00e+00

                        --- Bipolar Transistors ---
Name:     q:u1:2      q:u1:1
Model:     u1:qx       u1:qx
Ib:       5.54e-12   -4.09e-08
Ic:      -3.08e-12   -1.02e-05
Vbe:      2.45e+00   -6.02e-01
Vbc:      3.08e+00   -8.11e-02
Vce:     -6.31e-01   -5.21e-01
BetaDC:  -5.57e-01    2.50e+02
Gm:       2.08e-55    3.95e-04
Rpi:      1.00e+12    6.33e+05
Rx:       0.00e+00    0.00e+00
Ro:       1.86e+65    1.41e+12
Cbe:      0.00e+00    0.00e+00
Cbc:      0.00e+00    0.00e+00
Cjs:      0.00e+00    0.00e+00
BetaAC:   2.08e-43    2.50e+02
Cbx:      0.00e+00    0.00e+00
Ft:       0.00e+00    0.00e+00



Date: Thu Aug 29 20:49:42 2024
Total elapsed time: 7.315 seconds.

tnom = 27
temp = 27
method = trap
totiter = 4706
traniter = 0
tranpoints = 0
accept = 0
rejected = 0
matrix size = 32
fillins = 82
solver = Normal
Matrix Compiler1: 4.71 KB object code size
Matrix Compiler2: 3.87 KB object code size  0.7/0.7/[0.4]

