Circuit: * H:\Mi unidad\#Facultad\4to\Sintesis de redes activas\2023\Laboratorio\Lab 1\Circ 2\Lab_1_Circ_2_IRL.asc

.step rl=1e-012
Direct Newton iteration for .op point succeeded.
Semiconductor Device Operating Points:
                        --- Diodes ---
Name:    d:u1:p      d:u1:ln     d:u1:lp     d:u1:e      d:u1:c
Model:    u1:dx       u1:dx       u1:dx       u1:dx       u1:dx
Id:     -2.00e-11   -4.00e-11   -4.00e-11   -9.40e-12   -7.90e-12
Vd:     -2.00e+01   -4.00e+01   -4.00e+01   -9.40e+00   -7.90e+00
Req:     1.00e+12    1.00e+12    1.00e+12    1.00e+12    1.00e+12
CAP:     0.00e+00    0.00e+00    0.00e+00    0.00e+00    0.00e+00

                        --- Bipolar Transistors ---
Name:     q:u1:2      q:u1:1
Model:     u1:qx       u1:qx
Ib:      -1.99e-08   -1.99e-08
Ic:      -4.98e-06   -4.99e-06
Vbe:     -5.83e-01   -5.83e-01
Vbc:      9.96e+00    9.96e+00
Vce:     -1.05e+01   -1.05e+01
BetaDC:   2.50e+02    2.50e+02
Gm:       1.93e-04    1.93e-04
Rpi:      1.30e+06    1.30e+06
Rx:       0.00e+00    0.00e+00
Ro:       0.00e+00    0.00e+00
Cbe:      0.00e+00    0.00e+00
Cbc:      0.00e+00    0.00e+00
Cjs:      0.00e+00    0.00e+00
BetaAC:   2.50e+02    2.50e+02
Cbx:      0.00e+00    0.00e+00
Ft:       0.00e+00    0.00e+00


.step rl=1000
.step rl=2000
.step rl=5000
.step rl=10000

Date: Wed Nov 27 20:37:33 2024
Total elapsed time: 8.187 seconds.

tnom = 27
temp = 27
method = trap
totiter = 14
traniter = 0
tranpoints = 0
accept = 0
rejected = 0
matrix size = 32
fillins = 52
solver = Normal
Matrix Compiler1: 4.16 KB object code size
Matrix Compiler2: 3.52 KB object code size
