Circuit: * H:\Mi unidad\#Facultad\4to\Sintesis de redes activas\2023\Laboratorio\Lab 1\Circ 1\Lab_1_Circ_1_V1.asc

Early termination of direct N-R iteration.
Direct Newton iteration failed to find .op point.  (Use ".option noopiter" to skip.)
Starting Gmin stepping
Gmin = 10
vernier = 0.5
vernier = 0.25
vernier = 0.125
vernier = 0.0625
Gmin = 8.61953
vernier = 0.03125
vernier = 0.015625
vernier = 0.0078125
vernier = 0.00390625
Gmin = 8.47038
vernier = 0.00195313
vernier = 0.000976563
vernier = 0.000488281
Gmin = 0
Gmin stepping succeeded in finding the operating point.

Semiconductor Device Operating Points:
                        --- Diodes ---
Name:    d:u2:p      d:u2:ln     d:u2:lp     d:u2:e      d:u2:c
Model:    u2:dx       u2:dx       u2:dx       u2:dx       u2:dx
Id:     -2.00e-11   -4.10e-11   -3.90e-11   -1.79e-11    8.00e-06
Vd:     -2.00e+01   -4.10e+01   -3.90e+01   -1.79e+01    5.96e-01
Req:     1.00e+12    1.00e+12    1.00e+12    1.00e+12    3.23e+03
CAP:     0.00e+00    0.00e+00    0.00e+00    0.00e+00    0.00e+00

Name:    d:u1:p      d:u1:ln     d:u1:lp     d:u1:e      d:u1:c
Model:    u1:dx       u1:dx       u1:dx       u1:dx       u1:dx
Id:     -2.00e-11   -3.86e-11   -4.14e-11    8.27e-06   -1.79e-11
Vd:     -2.00e+01   -3.86e+01   -4.14e+01    5.96e-01   -1.79e+01
Req:     1.00e+12    1.00e+12    1.00e+12    3.13e+03    1.00e+12
CAP:     0.00e+00    0.00e+00    0.00e+00    0.00e+00    0.00e+00

                        --- Bipolar Transistors ---
Name:     q:u2:2      q:u2:1      q:u1:2      q:u1:1
Model:     u2:qx       u2:qx       u1:qx       u1:qx
Ib:       1.12e-11   -4.02e-08   -4.19e-08    1.15e-11
Ic:      -1.00e-11   -1.01e-05   -1.05e-05   -6.06e-12
Vbe:      1.18e+00   -6.01e-01   -6.03e-01    5.43e+00
Vbc:      1.00e+01    8.11e+00   -8.33e-02    6.06e+00
Vce:     -8.82e+00   -8.71e+00   -5.19e-01   -6.32e-01
BetaDC:  -8.94e-01    2.50e+02    2.50e+02   -5.28e-01
Gm:       4.28e-34    3.89e-04    4.05e-04    0.00e+00
Rpi:      1.00e+12    6.43e+05    6.18e+05    1.00e+12
Rx:       0.00e+00    0.00e+00    0.00e+00    0.00e+00
Ro:       0.00e+00    0.00e+00    1.29e+12    0.00e+00
Cbe:      0.00e+00    0.00e+00    0.00e+00    0.00e+00
Cbc:      0.00e+00    0.00e+00    0.00e+00    0.00e+00
Cjs:      0.00e+00    0.00e+00    0.00e+00    0.00e+00
BetaAC:   4.28e-22    2.50e+02    2.50e+02    0.00e+00
Cbx:      0.00e+00    0.00e+00    0.00e+00    0.00e+00
Ft:       0.00e+00    0.00e+00    0.00e+00    0.00e+00



Date: Fri Nov 08 02:44:05 2024
Total elapsed time: 53.771 seconds.

tnom = 27
temp = 27
method = trap
totiter = 1375
traniter = 0
tranpoints = 0
accept = 0
rejected = 0
matrix size = 56
fillins = 227
solver = Normal
Matrix Compiler1: 19.68 KB object code size
Matrix Compiler2: 8.49 KB object code size  0.7/0.7/[0.4]

