Circuit: * H:\Mi unidad\#Facultad\4to\Sintesis de redes activas\2023\Laboratorio\Lab 1\Circ 1\Lab_1_Circ_1_V2.asc

Early termination of direct N-R iteration.
Direct Newton iteration failed to find .op point.  (Use ".option noopiter" to skip.)
Starting Gmin stepping
Gmin = 10
vernier = 0.5
vernier = 0.25
Gmin = 2.62144
vernier = 0.125
vernier = 0.0625
vernier = 0.03125
vernier = 0.015625
Gmin = 2.5611
vernier = 0.0078125
vernier = 0.0104167
vernier = 0.00520833
vernier = 0.00260417
Gmin = 2.53459
vernier = 0.00347222
Gmin = 2.51487
vernier = 0.00462963
vernier = 0.00231481
vernier = 0.00115741
vernier = 0.00154321
Gmin = 2.5093
vernier = 0.00205761
vernier = 0.00102881
vernier = 0.000514403
Gmin = 2.50253
vernier = 0.00068587
Gmin = 2.49867
vernier = 0.000914493
vernier = 0.00121932
vernier = 0.000609662
Gmin = 2.49373
vernier = 0.000457246
vernier = 0.000609662
Gmin = 2.49078
vernier = 0.000812882
vernier = 0.00108384
vernier = 0.000541921
Gmin = 2.48699
vernier = 0.000406441
vernier = 0.000541921
Gmin = 2.48438
vernier = 0.000722561
vernier = 0.000541921
vernier = 0.000406441
Gmin = 2.48245
vernier = 0.000541921
vernier = 0.000722561
vernier = 0.000541921
vernier = 0.000406441
Gmin = 2.48018
vernier = 0.000541921
vernier = 0.00040644
Gmin = 0
Gmin stepping succeeded in finding the operating point.

Semiconductor Device Operating Points:
                        --- Diodes ---
Name:    d:u2:p      d:u2:ln     d:u2:lp     d:u2:e      d:u2:c
Model:    u2:dx       u2:dx       u2:dx       u2:dx       u2:dx
Id:     -2.00e-11   -3.92e-11   -4.08e-11    8.27e-06   -1.79e-11
Vd:     -2.00e+01   -3.92e+01   -4.08e+01    5.96e-01   -1.79e+01
Req:     1.00e+12    1.00e+12    1.00e+12    3.13e+03    1.00e+12
CAP:     0.00e+00    0.00e+00    0.00e+00    0.00e+00    0.00e+00

Name:    d:u1:p      d:u1:ln     d:u1:lp     d:u1:e      d:u1:c
Model:    u1:dx       u1:dx       u1:dx       u1:dx       u1:dx
Id:     -2.00e-11   -4.08e-11   -3.93e-11   -1.19e-11   -5.40e-12
Vd:     -2.00e+01   -4.07e+01   -3.93e+01   -1.19e+01   -5.40e+00
Req:     1.00e+12    1.00e+12    1.00e+12    1.00e+12    1.00e+12
CAP:     0.00e+00    0.00e+00    0.00e+00    0.00e+00    0.00e+00

                        --- Bipolar Transistors ---
Name:     q:u2:2      q:u2:1      q:u1:2      q:u1:1
Model:     u2:qx       u2:qx       u1:qx       u1:qx
Ib:      -4.19e-08    1.44e-11   -1.99e-08   -1.99e-08
Ic:      -1.05e-05   -7.50e-12   -4.98e-06   -4.99e-06
Vbe:     -6.03e-01    6.87e+00   -5.83e-01   -5.83e-01
Vbc:     -8.33e-02    7.50e+00    9.96e+00    9.96e+00
Vce:     -5.19e-01   -6.32e-01   -1.05e+01   -1.05e+01
BetaDC:   2.50e+02   -5.22e-01    2.50e+02    2.50e+02
Gm:       4.05e-04    0.00e+00    1.93e-04    1.93e-04
Rpi:      6.18e+05    1.00e+12    1.30e+06    1.30e+06
Rx:       0.00e+00    0.00e+00    0.00e+00    0.00e+00
Ro:       1.29e+12    0.00e+00    0.00e+00    0.00e+00
Cbe:      0.00e+00    0.00e+00    0.00e+00    0.00e+00
Cbc:      0.00e+00    0.00e+00    0.00e+00    0.00e+00
Cjs:      0.00e+00    0.00e+00    0.00e+00    0.00e+00
BetaAC:   2.50e+02    0.00e+00    2.50e+02    2.50e+02
Cbx:      0.00e+00    0.00e+00    0.00e+00    0.00e+00
Ft:       0.00e+00    0.00e+00    0.00e+00    0.00e+00



Date: Fri Nov 08 02:41:40 2024
Total elapsed time: 84.156 seconds.

tnom = 27
temp = 27
method = trap
totiter = 8219
traniter = 0
tranpoints = 0
accept = 0
rejected = 0
matrix size = 56
fillins = 302
solver = Normal
Matrix Compiler1: 20.10 KB object code size
Matrix Compiler2: 9.83 KB object code size  0.7/0.9/[0.3]

