Circuit: * H:\Mi unidad\#Facultad\4to\Sintesis de redes activas\2023\Laboratorio\Lab 2\Circ 2 Ri=100k\Lab_2_Circ_1_Ri=100k+Vo=f(V1).asc

Direct Newton iteration for .op point succeeded.
Semiconductor Device Operating Points:
                        --- Diodes ---
Name:    d:u1:p      d:u1:ln     d:u1:lp     d:u1:e      d:u1:c
Model:    u1:dx       u1:dx       u1:dx       u1:dx       u1:dx
Id:     -2.00e-11   -4.01e-11   -3.99e-11   -1.79e-11    7.95e-06
Vd:     -2.00e+01   -4.01e+01   -3.99e+01   -1.79e+01    5.95e-01
Req:     1.00e+12    1.00e+12    1.00e+12    1.00e+12    3.25e+03
CAP:     0.00e+00    0.00e+00    0.00e+00    0.00e+00    0.00e+00

                        --- Bipolar Transistors ---
Name:     q:u1:2      q:u1:1
Model:     u1:qx       u1:qx
Ib:       1.01e-11   -4.00e-08
Ic:      -1.00e-11   -1.00e-05
Vbe:      1.15e-01   -6.01e-01
Vbc:      1.00e+01    9.18e+00
Vce:     -9.88e+00   -9.78e+00
BetaDC:  -9.89e-01    2.50e+02
Gm:       3.61e-16    3.87e-04
Rpi:      1.00e+12    6.46e+05
Rx:       0.00e+00    0.00e+00
Ro:       0.00e+00    0.00e+00
Cbe:      0.00e+00    0.00e+00
Cbc:      0.00e+00    0.00e+00
Cjs:      0.00e+00    0.00e+00
BetaAC:   3.61e-04    2.50e+02
Cbx:      0.00e+00    0.00e+00
Ft:       0.00e+00    0.00e+00



Date: Sun Jan 05 22:48:16 2025
Total elapsed time: 11.602 seconds.

tnom = 27
temp = 27
method = trap
totiter = 16
traniter = 0
tranpoints = 0
accept = 0
rejected = 0
matrix size = 36
fillins = 47
solver = Normal
Matrix Compiler1: 4.14 KB object code size
Matrix Compiler2: 3.63 KB object code size
