Circuit: * H:\Mi unidad\#Facultad\4to\Sintesis de redes activas\2023\Laboratorio\Lab 1\Sim 3\Lab_1_Circ_3_Vin(cc).asc

Early termination of direct N-R iteration.
Direct Newton iteration failed to find .op point.  (Use ".option noopiter" to skip.)
Starting Gmin stepping
Gmin = 10
vernier = 0.5
vernier = 0.25
vernier = 0.125
vernier = 0.0625
Gmin = 8.61953
vernier = 0.03125
vernier = 0.015625
vernier = 0.0078125
vernier = 0.00390625
Gmin = 8.47038
vernier = 0.00195313
vernier = 0.000976563
vernier = 0.000488281
Gmin = 0
Gmin stepping succeeded in finding the operating point.

Semiconductor Device Operating Points:
                        --- Diodes ---
Name:      d2          d1        d:u2:p      d:u2:ln     d:u2:lp
Model:   1n4148      1n4148       u2:dx       u2:dx       u2:dx
Id:     -2.53e-09    4.36e-04   -2.00e-11   -4.00e-11   -4.00e-11
Vd:     -5.27e+00    5.47e-01   -2.00e+01   -4.00e+01   -4.00e+01
Req:     1.00e+12    1.04e+02    1.00e+12    1.00e+12    1.00e+12
CAP:     1.92e-12    1.98e-10    0.00e+00    0.00e+00    0.00e+00

Name:    d:u2:e      d:u2:c      d:u1:p      d:u1:ln     d:u1:lp
Model:    u2:dx       u2:dx       u1:dx       u1:dx       u1:dx
Id:      8.27e-06   -1.79e-11   -2.00e-11   -3.96e-11   -4.04e-11
Vd:      5.96e-01   -1.79e+01   -2.00e+01   -3.96e+01   -4.04e+01
Req:     3.13e+03    1.00e+12    1.00e+12    1.00e+12    1.00e+12
CAP:     0.00e+00    0.00e+00    0.00e+00    0.00e+00    0.00e+00

Name:    d:u1:e      d:u1:c
Model:    u1:dx       u1:dx
Id:      8.27e-06   -1.79e-11
Vd:      5.96e-01   -1.79e+01
Req:     3.13e+03    1.00e+12
CAP:     0.00e+00    0.00e+00

                        --- Bipolar Transistors ---
Name:     q:u2:2      q:u2:1      q:u1:2      q:u1:1
Model:     u2:qx       u2:qx       u1:qx       u1:qx
Ib:      -4.19e-08    2.03e-14   -4.19e-08    9.92e-12
Ic:      -1.05e-05   -2.17e-11   -1.05e-05   -5.28e-12
Vbe:     -6.03e-01   -2.64e-01   -6.03e-01    4.64e+00
Vbc:     -8.33e-02    3.68e-01   -8.33e-02    5.28e+00
Vce:     -5.19e-01   -6.32e-01   -5.19e-01   -6.32e-01
BetaDC:   2.50e+02   -1.07e+03    2.50e+02   -5.32e-01
Gm:       4.05e-04    8.23e-10    4.05e-04    3.32e-92
Rpi:      6.18e+05    2.33e+11    6.18e+05    1.00e+12
Rx:       0.00e+00    0.00e+00    0.00e+00    0.00e+00
Ro:       1.29e+12    4.91e+19    1.29e+12    0.00e+00
Cbe:      0.00e+00    0.00e+00    0.00e+00    0.00e+00
Cbc:      0.00e+00    0.00e+00    0.00e+00    0.00e+00
Cjs:      0.00e+00    0.00e+00    0.00e+00    0.00e+00
BetaAC:   2.50e+02    1.92e+02    2.50e+02    3.32e-80
Cbx:      0.00e+00    0.00e+00    0.00e+00    0.00e+00
Ft:       0.00e+00    0.00e+00    0.00e+00    0.00e+00



Date: Thu Dec 21 02:13:07 2023
Total elapsed time: 42.606 seconds.

tnom = 27
temp = 27
method = trap
totiter = 1395
traniter = 0
tranpoints = 0
accept = 0
rejected = 0
matrix size = 59
fillins = 267
solver = Normal
Matrix Compiler1: 24.00 KB object code size
Matrix Compiler2: 9.50 KB object code size  0.8/0.8/[0.5]

